T2700 000:004.682   SEGGER J-Link V7.86 Log File
T2700 000:005.187   DLL Compiled: Feb 15 2023 17:09:49
T2700 000:005.190   Logging started @ 2023-08-14 09:03
T2700 000:005.193 - 5.194ms
T2700 000:005.308 JLINK_SetWarnOutHandler(...)
T2700 000:005.453 - 0.146ms
T2700 000:005.459 JLINK_OpenEx(...)
T2700 000:009.622   Firmware: J-Link OB-STM32F072-CortexM compiled Mar  8 2020 11:15:54
T2700 000:009.944   Firmware: J-Link OB-STM32F072-CortexM compiled Mar  8 2020 11:15:54
T2700 000:010.667   Decompressing FW timestamp took 268 us
T2700 000:015.354   Hardware: V1.00
T2700 000:015.361   S/N: 20220063
T2700 000:015.365   OEM: SEGGER
T2700 000:015.369   Feature(s): GDB, RDI, FlashBP, FlashDL, JFlash, RDDI
T2700 000:016.997   TELNET listener socket opened on port 19021
T2700 000:017.073   WEBSRV WEBSRV_Init(): Starting webserver thread(s)
T2700 000:017.162   WEBSRV Webserver running on local port 19080
T2700 000:024.644 - 19.192ms returns "O.K."
T2700 000:024.833 JLINK_GetEmuCaps()
T2700 000:024.837 - 0.004ms returns 0xB8EA5A33
T2700 000:024.957 JLINK_TIF_GetAvailable(...)
T2700 000:025.085 - 0.129ms
T2700 000:025.091 JLINK_SetErrorOutHandler(...)
T2700 000:025.093 - 0.004ms
T2700 000:025.436 JLINK_ExecCommand("ProjectFile = "E:\文件夹\Desktop\嵌入式系统与芯片设计竞赛\重要代码\1\MDK-ARM\JLinkSettings.ini"", ...). 
T2700 000:045.253   Ref file found at: G:\Study\Keil\Keil_v5\ARM\Segger\JLinkDevices.ref
T2700 000:045.342   REF file references invalid XML file: C:\Program Files\SEGGER\JLink\JLinkDevices.xml
T2700 000:045.675 - 20.242ms returns 0x00
T2700 000:050.416 JLINK_ExecCommand("Device = STM32G070CBTx", ...). 
T2700 000:053.150   Device "STM32G070CB" selected.
T2700 000:053.270 - 2.847ms returns 0x00
T2700 000:053.278 JLINK_ExecCommand("DisableConnectionTimeout", ...). 
T2700 000:053.284 - 0.002ms returns 0x01
T2700 000:053.369 JLINK_GetHardwareVersion()
T2700 000:053.390 - 0.022ms returns 10000
T2700 000:053.395 JLINK_GetDLLVersion()
T2700 000:053.397 - 0.004ms returns 78600
T2700 000:053.401 JLINK_GetOEMString(...)
T2700 000:053.406 JLINK_GetFirmwareString(...)
T2700 000:053.409 - 0.004ms
T2700 000:056.724 JLINK_GetDLLVersion()
T2700 000:056.731 - 0.009ms returns 78600
T2700 000:056.736 JLINK_GetCompileDateTime()
T2700 000:056.739 - 0.004ms
T2700 000:058.939 JLINK_GetFirmwareString(...)
T2700 000:058.947 - 0.009ms
T2700 000:059.896 JLINK_GetHardwareVersion()
T2700 000:059.902 - 0.007ms returns 10000
T2700 000:060.870 JLINK_GetSN()
T2700 000:060.877 - 0.008ms returns 20220063
T2700 000:061.908 JLINK_GetOEMString(...)
T2700 000:063.769 JLINK_TIF_Select(JLINKARM_TIF_SWD)
T2700 000:064.608 - 0.842ms returns 0x00
T2700 000:064.615 JLINK_HasError()
T2700 000:064.821 JLINK_SetSpeed(5000)
T2700 000:064.888 - 0.068ms
T2700 000:064.894 JLINK_GetId()
T2700 000:066.583   InitTarget() start
T2700 000:066.592    J-Link Script File: Executing InitTarget()
T2700 000:068.468   SWD selected. Executing JTAG -> SWD switching sequence.
T2700 000:073.628   DAP initialized successfully.
T2700 000:093.148   InitTarget() end
T2700 000:094.775   Found SW-DP with ID 0x0BC11477
T2700 000:099.210   Old FW that does not support reading DPIDR via DAP jobs
T2700 000:104.372   DPv0 detected
T2700 000:105.417   CoreSight SoC-400 or earlier
T2700 000:106.361   Scanning AP map to find all available APs
T2700 000:109.890   AP[1]: Stopped AP scan as end of AP map has been reached
T2700 000:110.934   AP[0]: AHB-AP (IDR: 0x04770031)
T2700 000:111.836   Iterating through AP map to find AHB-AP to use
T2700 000:117.340   AP[0]: Core found
T2700 000:118.238   AP[0]: AHB-AP ROM base: 0xF0000000
T2700 000:121.751   CPUID register: 0x410CC601. Implementer code: 0x41 (ARM)
T2700 000:122.669   Found Cortex-M0 r0p1, Little endian.
T2700 000:123.001   -- Max. mem block: 0x00002220
T2700 000:123.097   CPU_ReadMem(4 bytes @ 0xE000EDF0)
T2700 000:123.693   CPU_ReadMem(4 bytes @ 0xE0002000)
T2700 000:125.072   FPUnit: 4 code (BP) slots and 0 literal slots
T2700 000:125.081   CPU_ReadMem(4 bytes @ 0xE000EDFC)
T2700 000:125.488   CPU_WriteMem(4 bytes @ 0xE000EDFC)
T2700 000:125.890   CPU_ReadMem(4 bytes @ 0xE0001000)
T2700 000:126.309   CPU_WriteMem(4 bytes @ 0xE0001000)
T2700 000:127.655   CoreSight components:
T2700 000:128.706   ROMTbl[0] @ F0000000
T2700 000:128.714   CPU_ReadMem(64 bytes @ 0xF0000000)
T2700 000:129.690   CPU_ReadMem(32 bytes @ 0xE00FFFE0)
T2700 000:131.334   [0][0]: E00FF000 CID B105100D PID 000BB4C0 ROM Table
T2700 000:132.226   ROMTbl[1] @ E00FF000
T2700 000:132.235   CPU_ReadMem(64 bytes @ 0xE00FF000)
T2700 000:133.181   CPU_ReadMem(32 bytes @ 0xE000EFE0)
T2700 000:134.780   [1][0]: E000E000 CID B105E00D PID 000BB008 SCS
T2700 000:134.789   CPU_ReadMem(32 bytes @ 0xE0001FE0)
T2700 000:136.285   [1][1]: E0001000 CID B105E00D PID 000BB00A DWT
T2700 000:136.293   CPU_ReadMem(32 bytes @ 0xE0002FE0)
T2700 000:137.901   [1][2]: E0002000 CID B105E00D PID 000BB00B FPB
T2700 000:138.304 - 73.412ms returns 0x0BC11477
T2700 000:138.313 JLINK_GetDLLVersion()
T2700 000:138.316 - 0.004ms returns 78600
T2700 000:138.344 JLINK_CORE_GetFound()
T2700 000:138.347 - 0.004ms returns 0x60000FF
T2700 000:138.352 JLINK_GetDebugInfo(0x100 = JLINKARM_ROM_TABLE_ADDR_INDEX)
T2700 000:138.358   Value=0xF0000000
T2700 000:138.362 - 0.011ms returns 0
T2700 000:139.303 JLINK_GetDebugInfo(0x100 = JLINKARM_ROM_TABLE_ADDR_INDEX)
T2700 000:139.309   Value=0xF0000000
T2700 000:139.313 - 0.011ms returns 0
T2700 000:139.317 JLINK_GetDebugInfo(0x101 = JLINKARM_DEBUG_INFO_ETM_ADDR_INDEX)
T2700 000:139.320   Value=0x00000000
T2700 000:139.324 - 0.008ms returns 0
T2700 000:139.328 JLINK_ReadMemEx(0xE0041FF0, 0x10 Bytes, Flags = 0x02000004)
T2700 000:139.521   CPU_ReadMem(16 bytes @ 0xE0041FF0)
T2700 000:140.033   Data:  00 00 00 00 00 00 00 00 00 00 00 00 00 00 00 00
T2700 000:140.054 - 0.733ms returns 16 (0x10)
T2700 000:140.076 JLINK_GetDebugInfo(0x102 = JLINKARM_DEBUG_INFO_MTB_ADDR_INDEX)
T2700 000:140.092   Value=0x00000000
T2700 000:140.107 - 0.032ms returns 0
T2700 000:140.111 JLINK_GetDebugInfo(0x103 = JLINKARM_DEBUG_INFO_TPIU_ADDR_INDEX)
T2700 000:140.113   Value=0x00000000
T2700 000:140.117 - 0.007ms returns 0
T2700 000:140.120 JLINK_ReadMemEx(0xE0040FF0, 0x10 Bytes, Flags = 0x02000004)
T2700 000:140.126   CPU_ReadMem(16 bytes @ 0xE0040FF0)
T2700 000:140.623   Data:  00 00 00 00 00 00 00 00 00 00 00 00 00 00 00 00
T2700 000:140.643 - 0.529ms returns 16 (0x10)
T2700 000:140.663 JLINK_GetDebugInfo(0x104 = JLINKARM_DEBUG_INFO_ITM_ADDR_INDEX)
T2700 000:140.673   Value=0xE0000000
T2700 000:140.677 - 0.015ms returns 0
T2700 000:140.680 JLINK_GetDebugInfo(0x105 = JLINKARM_DEBUG_INFO_DWT_ADDR_INDEX)
T2700 000:140.683   Value=0xE0001000
T2700 000:140.686 - 0.007ms returns 0
T2700 000:140.690 JLINK_GetDebugInfo(0x106 = JLINKARM_DEBUG_INFO_FPB_ADDR_INDEX)
T2700 000:140.693   Value=0xE0002000
T2700 000:140.696 - 0.007ms returns 0
T2700 000:140.699 JLINK_GetDebugInfo(0x107 = JLINKARM_DEBUG_INFO_NVIC_ADDR_INDEX)
T2700 000:140.702   Value=0xE000E000
T2700 000:140.706 - 0.007ms returns 0
T2700 000:140.709 JLINK_GetDebugInfo(0x10C = JLINKARM_DEBUG_INFO_DBG_ADDR_INDEX)
T2700 000:140.712   Value=0xE000EDF0
T2700 000:140.716 - 0.007ms returns 0
T2700 000:140.719 JLINK_GetDebugInfo(0x01 = Unknown)
T2700 000:140.723   Value=0x00000000
T2700 000:140.727 - 0.009ms returns 0
T2700 000:140.730 JLINK_ReadMemU32(0xE000ED00, 0x1 Items)
T2700 000:140.734   CPU_ReadMem(4 bytes @ 0xE000ED00)
T2700 000:141.139   Data:  01 C6 0C 41
T2700 000:141.163   Debug reg: CPUID
T2700 000:141.171 - 0.441ms returns 1 (0x1)
T2700 000:141.175 JLINK_GetDebugInfo(0x10F = JLINKARM_DEBUG_INFO_HAS_CORTEX_M_SECURITY_EXT_INDEX)
T2700 000:141.178   Value=0x00000000
T2700 000:141.181 - 0.007ms returns 0
T2700 000:141.185 JLINK_HasError()
T2700 000:141.189 JLINK_SetResetType(JLINKARM_CM3_RESET_TYPE_NORMAL)
T2700 000:141.192 - 0.004ms returns JLINKARM_CM3_RESET_TYPE_NORMAL
T2700 000:141.195 JLINK_Reset()
T2700 000:141.202   CPU is running
T2700 000:141.206   CPU_WriteMem(4 bytes @ 0xE000EDF0)
T2700 000:141.584   CPU is running
T2700 000:141.594   CPU_WriteMem(4 bytes @ 0xE000EDFC)
T2700 000:142.970   Reset: Halt core after reset via DEMCR.VC_CORERESET.
T2700 000:144.504   Reset: Reset device via AIRCR.SYSRESETREQ.
T2700 000:144.513   CPU is running
T2700 000:144.519   CPU_WriteMem(4 bytes @ 0xE000ED0C)
T2700 000:197.407   CPU_ReadMem(4 bytes @ 0xE000EDF0)
T2700 000:197.837   CPU_ReadMem(4 bytes @ 0xE000EDF0)
T2700 000:202.387   CPU_WriteMem(4 bytes @ 0xE000EDFC)
T2700 000:208.365   CPU_ReadMem(4 bytes @ 0xE000EDF0)
T2700 000:212.647   CPU_WriteMem(4 bytes @ 0xE0002000)
T2700 000:213.072   CPU_ReadMem(4 bytes @ 0xE000EDFC)
T2700 000:213.471   CPU_ReadMem(4 bytes @ 0xE0001000)
T2700 000:213.887   CPU_WriteMem(4 bytes @ 0xE0001000)
T2700 000:214.393 - 73.200ms
T2700 000:214.403 JLINK_Halt()
T2700 000:214.406 - 0.004ms returns 0x00
T2700 000:214.433 JLINK_ReadMemU32(0xE000EDF0, 0x1 Items)
T2700 000:214.442   CPU_ReadMem(4 bytes @ 0xE000EDF0)
T2700 000:214.844   Data:  03 00 03 00
T2700 000:214.866   Debug reg: DHCSR
T2700 000:214.871 - 0.439ms returns 1 (0x1)
T2700 000:214.876 JLINK_WriteU32_64(0xE000EDF0, 0xA05F0003)
T2700 000:214.879   Debug reg: DHCSR
T2700 000:215.132   CPU_WriteMem(4 bytes @ 0xE000EDF0)
T2700 000:215.494 - 0.625ms returns 0 (0x00000000)
T2700 000:215.516 JLINK_WriteU32_64(0xE000EDFC, 0x01000000)
T2700 000:215.528   Debug reg: DEMCR
T2700 000:215.533   CPU_WriteMem(4 bytes @ 0xE000EDFC)
T2700 000:215.961 - 0.452ms returns 0 (0x00000000)
T2700 000:220.007 JLINK_GetHWStatus(...)
T2700 000:220.167 - 0.162ms returns 0
T2700 000:222.949 JLINK_GetNumBPUnits(Type = 0xFFFFFF00)
T2700 000:222.957 - 0.009ms returns 0x04
T2700 000:222.961 JLINK_GetNumBPUnits(Type = 0xF0)
T2700 000:222.964 - 0.004ms returns 0x2000
T2700 000:222.967 JLINK_GetNumWPUnits()
T2700 000:222.970 - 0.004ms returns 2
T2700 000:225.748 JLINK_GetSpeed()
T2700 000:225.754 - 0.007ms returns 2000
T2700 000:227.449 JLINK_ReadMemU32(0xE000E004, 0x1 Items)
T2700 000:227.462   CPU_ReadMem(4 bytes @ 0xE000E004)
T2700 000:227.853   Data:  00 00 00 00
T2700 000:227.873 - 0.425ms returns 1 (0x1)
T2700 000:227.885 JLINK_Halt()
T2700 000:227.888 - 0.004ms returns 0x00
T2700 000:227.891 JLINK_IsHalted()
T2700 000:227.894 - 0.004ms returns TRUE
T2700 000:229.416 JLINK_WriteMem(0x20000000, 0x1C0 Bytes, ...)
T2700 000:229.421   Data:  00 BE 0A E0 0D 78 2D 06 68 40 08 24 40 00 00 D3 ...
T2700 000:229.648   CPU_WriteMem(448 bytes @ 0x20000000)
T2700 000:233.950 - 4.548ms returns 0x1C0
T2700 000:234.017 JLINK_HasError()
T2700 000:234.022 JLINK_WriteReg(R0, 0x08000000)
T2700 000:234.027 - 0.006ms returns 0
T2700 000:234.030 JLINK_WriteReg(R1, 0x007A1200)
T2700 000:234.033 - 0.004ms returns 0
T2700 000:234.037 JLINK_WriteReg(R2, 0x00000001)
T2700 000:234.040 - 0.004ms returns 0
T2700 000:234.043 JLINK_WriteReg(R3, 0x00000000)
T2700 000:234.046 - 0.004ms returns 0
T2700 000:234.049 JLINK_WriteReg(R4, 0x00000000)
T2700 000:234.052 - 0.004ms returns 0
T2700 000:234.055 JLINK_WriteReg(R5, 0x00000000)
T2700 000:234.058 - 0.004ms returns 0
T2700 000:234.061 JLINK_WriteReg(R6, 0x00000000)
T2700 000:234.064 - 0.004ms returns 0
T2700 000:234.068 JLINK_WriteReg(R7, 0x00000000)
T2700 000:234.070 - 0.004ms returns 0
T2700 000:234.074 JLINK_WriteReg(R8, 0x00000000)
T2700 000:234.081 - 0.008ms returns 0
T2700 000:234.084 JLINK_WriteReg(R9, 0x200001B8)
T2700 000:234.087 - 0.004ms returns 0
T2700 000:234.090 JLINK_WriteReg(R10, 0x00000000)
T2700 000:234.093 - 0.004ms returns 0
T2700 000:234.096 JLINK_WriteReg(R11, 0x00000000)
T2700 000:234.099 - 0.004ms returns 0
T2700 000:234.103 JLINK_WriteReg(R12, 0x00000000)
T2700 000:234.105 - 0.004ms returns 0
T2700 000:234.109 JLINK_WriteReg(R13 (SP), 0x20008000)
T2700 000:234.112 - 0.004ms returns 0
T2700 000:234.115 JLINK_WriteReg(R14, 0x20000001)
T2700 000:234.118 - 0.004ms returns 0
T2700 000:234.121 JLINK_WriteReg(R15 (PC), 0x20000020)
T2700 000:234.126 - 0.005ms returns 0
T2700 000:234.129 JLINK_WriteReg(XPSR, 0x01000000)
T2700 000:234.132 - 0.004ms returns 0
T2700 000:234.135 JLINK_WriteReg(MSP, 0x20008000)
T2700 000:234.143 - 0.009ms returns 0
T2700 000:234.147 JLINK_WriteReg(PSP, 0x20008000)
T2700 000:234.150 - 0.004ms returns 0
T2700 000:234.153 JLINK_WriteReg(CFBP, 0x00000000)
T2700 000:234.156 - 0.004ms returns 0
T2700 000:234.159 JLINK_SetBPEx(Addr = 0x20000000, Type = 0xFFFFFFF2)
T2700 000:234.166   CPU_ReadMem(2 bytes @ 0x20000000)
T2700 000:234.603 - 0.451ms returns 0x00000001
T2700 000:234.624 JLINK_Go()
T2700 000:234.629   CPU_WriteMem(2 bytes @ 0x20000000)
T2700 000:235.038   CPU_ReadMem(4 bytes @ 0xE0001000)
T2700 000:235.408   CPU_WriteMem(4 bytes @ 0xE0001000)
T2700 000:235.823   CPU_WriteMem(4 bytes @ 0xE0002008)
T2700 000:235.845   CPU_WriteMem(4 bytes @ 0xE000200C)
T2700 000:235.856   CPU_WriteMem(4 bytes @ 0xE0002010)
T2700 000:235.860   CPU_WriteMem(4 bytes @ 0xE0002014)
T2700 000:237.199   CPU_WriteMem(4 bytes @ 0xE0001004)
T2700 000:241.419 - 6.803ms
T2700 000:241.441 JLINK_IsHalted()
T2700 000:245.150   CPU_ReadMem(2 bytes @ 0x20000000)
T2700 000:245.588 - 4.150ms returns TRUE
T2700 000:245.597 JLINK_ReadReg(R15 (PC))
T2700 000:245.601 - 0.005ms returns 0x20000000
T2700 000:245.648 JLINK_ClrBPEx(BPHandle = 0x00000001)
T2700 000:245.652 - 0.005ms returns 0x00
T2700 000:245.656 JLINK_ReadReg(R0)
T2700 000:245.659 - 0.004ms returns 0x00000000
T2700 000:245.989 JLINK_HasError()
T2700 000:245.996 JLINK_WriteReg(R0, 0x08000000)
T2700 000:246.000 - 0.005ms returns 0
T2700 000:246.004 JLINK_WriteReg(R1, 0x007A1200)
T2700 000:246.006 - 0.004ms returns 0
T2700 000:246.010 JLINK_WriteReg(R2, 0x00000001)
T2700 000:246.013 - 0.004ms returns 0
T2700 000:246.016 JLINK_WriteReg(R3, 0x00000000)
T2700 000:246.019 - 0.004ms returns 0
T2700 000:246.022 JLINK_WriteReg(R4, 0x00000000)
T2700 000:246.025 - 0.004ms returns 0
T2700 000:246.029 JLINK_WriteReg(R5, 0x00000000)
T2700 000:246.031 - 0.004ms returns 0
T2700 000:246.035 JLINK_WriteReg(R6, 0x00000000)
T2700 000:246.038 - 0.004ms returns 0
T2700 000:246.041 JLINK_WriteReg(R7, 0x00000000)
T2700 000:246.044 - 0.004ms returns 0
T2700 000:246.047 JLINK_WriteReg(R8, 0x00000000)
T2700 000:246.050 - 0.004ms returns 0
T2700 000:246.053 JLINK_WriteReg(R9, 0x200001B8)
T2700 000:246.056 - 0.004ms returns 0
T2700 000:246.059 JLINK_WriteReg(R10, 0x00000000)
T2700 000:246.062 - 0.004ms returns 0
T2700 000:246.066 JLINK_WriteReg(R11, 0x00000000)
T2700 000:246.068 - 0.004ms returns 0
T2700 000:246.072 JLINK_WriteReg(R12, 0x00000000)
T2700 000:246.075 - 0.004ms returns 0
T2700 000:246.078 JLINK_WriteReg(R13 (SP), 0x20008000)
T2700 000:246.082 - 0.004ms returns 0
T2700 000:246.085 JLINK_WriteReg(R14, 0x20000001)
T2700 000:246.088 - 0.004ms returns 0
T2700 000:246.091 JLINK_WriteReg(R15 (PC), 0x2000004C)
T2700 000:246.094 - 0.004ms returns 0
T2700 000:246.098 JLINK_WriteReg(XPSR, 0x01000000)
T2700 000:246.101 - 0.004ms returns 0
T2700 000:246.104 JLINK_WriteReg(MSP, 0x20008000)
T2700 000:246.107 - 0.004ms returns 0
T2700 000:246.110 JLINK_WriteReg(PSP, 0x20008000)
T2700 000:246.113 - 0.004ms returns 0
T2700 000:246.117 JLINK_WriteReg(CFBP, 0x00000000)
T2700 000:246.120 - 0.004ms returns 0
T2700 000:246.123 JLINK_SetBPEx(Addr = 0x20000000, Type = 0xFFFFFFF2)
T2700 000:246.127 - 0.005ms returns 0x00000002
T2700 000:246.130 JLINK_Go()
T2700 000:246.137   CPU_ReadMem(4 bytes @ 0xE0001000)
T2700 000:250.263 - 4.141ms
T2700 000:250.286 JLINK_IsHalted()
T2700 000:250.653 - 0.374ms returns FALSE
T2700 000:250.673 JLINK_HasError()
T2700 000:261.197 JLINK_IsHalted()
T2700 000:261.646 - 0.458ms returns FALSE
T2700 000:261.667 JLINK_HasError()
T2700 000:263.179 JLINK_IsHalted()
T2700 000:263.614 - 0.442ms returns FALSE
T2700 000:263.635 JLINK_HasError()
T2700 000:265.150 JLINK_IsHalted()
T2700 000:265.593 - 0.450ms returns FALSE
T2700 000:265.614 JLINK_HasError()
T2700 000:267.160 JLINK_IsHalted()
T2700 000:267.582 - 0.424ms returns FALSE
T2700 000:267.589 JLINK_HasError()
T2700 000:269.172 JLINK_IsHalted()
T2700 000:269.619 - 0.458ms returns FALSE
T2700 000:269.641 JLINK_HasError()
T2700 000:271.155 JLINK_IsHalted()
T2700 000:271.593 - 0.446ms returns FALSE
T2700 000:271.622 JLINK_HasError()
T2700 000:273.155 JLINK_IsHalted()
T2700 000:277.004   CPU_ReadMem(2 bytes @ 0x20000000)
T2700 000:277.430 - 4.283ms returns TRUE
T2700 000:277.454 JLINK_ReadReg(R15 (PC))
T2700 000:277.462 - 0.009ms returns 0x20000000
T2700 000:277.466 JLINK_ClrBPEx(BPHandle = 0x00000002)
T2700 000:277.469 - 0.004ms returns 0x00
T2700 000:277.473 JLINK_ReadReg(R0)
T2700 000:277.476 - 0.004ms returns 0x00000000
T2700 000:328.585 JLINK_HasError()
T2700 000:328.597 JLINK_WriteReg(R0, 0x00000001)
T2700 000:328.603 - 0.007ms returns 0
T2700 000:328.607 JLINK_WriteReg(R1, 0x007A1200)
T2700 000:328.610 - 0.004ms returns 0
T2700 000:328.614 JLINK_WriteReg(R2, 0x00000001)
T2700 000:328.616 - 0.004ms returns 0
T2700 000:328.620 JLINK_WriteReg(R3, 0x00000000)
T2700 000:328.623 - 0.004ms returns 0
T2700 000:328.626 JLINK_WriteReg(R4, 0x00000000)
T2700 000:328.629 - 0.004ms returns 0
T2700 000:328.632 JLINK_WriteReg(R5, 0x00000000)
T2700 000:328.635 - 0.004ms returns 0
T2700 000:328.639 JLINK_WriteReg(R6, 0x00000000)
T2700 000:328.641 - 0.004ms returns 0
T2700 000:328.645 JLINK_WriteReg(R7, 0x00000000)
T2700 000:328.647 - 0.004ms returns 0
T2700 000:328.651 JLINK_WriteReg(R8, 0x00000000)
T2700 000:328.654 - 0.004ms returns 0
T2700 000:328.657 JLINK_WriteReg(R9, 0x200001B8)
T2700 000:328.660 - 0.004ms returns 0
T2700 000:328.663 JLINK_WriteReg(R10, 0x00000000)
T2700 000:328.666 - 0.004ms returns 0
T2700 000:328.670 JLINK_WriteReg(R11, 0x00000000)
T2700 000:328.672 - 0.004ms returns 0
T2700 000:328.676 JLINK_WriteReg(R12, 0x00000000)
T2700 000:328.679 - 0.004ms returns 0
T2700 000:328.682 JLINK_WriteReg(R13 (SP), 0x20008000)
T2700 000:328.685 - 0.004ms returns 0
T2700 000:328.688 JLINK_WriteReg(R14, 0x20000001)
T2700 000:328.691 - 0.004ms returns 0
T2700 000:328.695 JLINK_WriteReg(R15 (PC), 0x20000032)
T2700 000:328.698 - 0.004ms returns 0
T2700 000:328.701 JLINK_WriteReg(XPSR, 0x01000000)
T2700 000:328.704 - 0.004ms returns 0
T2700 000:328.707 JLINK_WriteReg(MSP, 0x20008000)
T2700 000:328.710 - 0.004ms returns 0
T2700 000:328.713 JLINK_WriteReg(PSP, 0x20008000)
T2700 000:328.716 - 0.004ms returns 0
T2700 000:328.720 JLINK_WriteReg(CFBP, 0x00000000)
T2700 000:328.722 - 0.004ms returns 0
T2700 000:328.726 JLINK_SetBPEx(Addr = 0x20000000, Type = 0xFFFFFFF2)
T2700 000:328.730 - 0.005ms returns 0x00000003
T2700 000:328.734 JLINK_Go()
T2700 000:328.745   CPU_ReadMem(4 bytes @ 0xE0001000)
T2700 000:332.867 - 4.145ms
T2700 000:332.893 JLINK_IsHalted()
T2700 000:336.691   CPU_ReadMem(2 bytes @ 0x20000000)
T2700 000:337.085 - 4.200ms returns TRUE
T2700 000:337.111 JLINK_ReadReg(R15 (PC))
T2700 000:337.120 - 0.011ms returns 0x20000000
T2700 000:337.124 JLINK_ClrBPEx(BPHandle = 0x00000003)
T2700 000:337.127 - 0.004ms returns 0x00
T2700 000:337.131 JLINK_ReadReg(R0)
T2700 000:337.134 - 0.004ms returns 0x00000000
T2700 000:339.392 JLINK_WriteMem(0x20000000, 0x1C0 Bytes, ...)
T2700 000:339.398   Data:  00 BE 0A E0 0D 78 2D 06 68 40 08 24 40 00 00 D3 ...
T2700 000:339.409   CPU_WriteMem(448 bytes @ 0x20000000)
T2700 000:343.723 - 4.340ms returns 0x1C0
T2700 000:343.789 JLINK_HasError()
T2700 000:343.793 JLINK_WriteReg(R0, 0x08000000)
T2700 000:343.797 - 0.005ms returns 0
T2700 000:343.800 JLINK_WriteReg(R1, 0x007A1200)
T2700 000:343.803 - 0.004ms returns 0
T2700 000:343.807 JLINK_WriteReg(R2, 0x00000002)
T2700 000:343.809 - 0.004ms returns 0
T2700 000:343.813 JLINK_WriteReg(R3, 0x00000000)
T2700 000:343.815 - 0.004ms returns 0
T2700 000:343.819 JLINK_WriteReg(R4, 0x00000000)
T2700 000:343.822 - 0.004ms returns 0
T2700 000:343.825 JLINK_WriteReg(R5, 0x00000000)
T2700 000:343.828 - 0.004ms returns 0
T2700 000:343.831 JLINK_WriteReg(R6, 0x00000000)
T2700 000:343.834 - 0.004ms returns 0
T2700 000:343.837 JLINK_WriteReg(R7, 0x00000000)
T2700 000:343.840 - 0.004ms returns 0
T2700 000:343.844 JLINK_WriteReg(R8, 0x00000000)
T2700 000:343.846 - 0.004ms returns 0
T2700 000:343.882 JLINK_WriteReg(R9, 0x200001B8)
T2700 000:343.887 - 0.007ms returns 0
T2700 000:343.891 JLINK_WriteReg(R10, 0x00000000)
T2700 000:343.894 - 0.004ms returns 0
T2700 000:343.898 JLINK_WriteReg(R11, 0x00000000)
T2700 000:343.900 - 0.004ms returns 0
T2700 000:343.904 JLINK_WriteReg(R12, 0x00000000)
T2700 000:343.906 - 0.004ms returns 0
T2700 000:343.910 JLINK_WriteReg(R13 (SP), 0x20008000)
T2700 000:343.913 - 0.004ms returns 0
T2700 000:343.917 JLINK_WriteReg(R14, 0x20000001)
T2700 000:343.919 - 0.004ms returns 0
T2700 000:343.923 JLINK_WriteReg(R15 (PC), 0x20000020)
T2700 000:343.926 - 0.004ms returns 0
T2700 000:343.929 JLINK_WriteReg(XPSR, 0x01000000)
T2700 000:343.932 - 0.004ms returns 0
T2700 000:343.935 JLINK_WriteReg(MSP, 0x20008000)
T2700 000:343.938 - 0.004ms returns 0
T2700 000:343.942 JLINK_WriteReg(PSP, 0x20008000)
T2700 000:343.944 - 0.004ms returns 0
T2700 000:343.948 JLINK_WriteReg(CFBP, 0x00000000)
T2700 000:343.951 - 0.004ms returns 0
T2700 000:343.954 JLINK_SetBPEx(Addr = 0x20000000, Type = 0xFFFFFFF2)
T2700 000:343.960   CPU_ReadMem(2 bytes @ 0x20000000)
T2700 000:344.384 - 0.438ms returns 0x00000004
T2700 000:344.401 JLINK_Go()
T2700 000:344.405   CPU_WriteMem(2 bytes @ 0x20000000)
T2700 000:344.881   CPU_ReadMem(4 bytes @ 0xE0001000)
T2700 000:349.025 - 4.626ms
T2700 000:349.031 JLINK_IsHalted()
T2700 000:352.888   CPU_ReadMem(2 bytes @ 0x20000000)
T2700 000:353.302 - 4.279ms returns TRUE
T2700 000:353.334 JLINK_ReadReg(R15 (PC))
T2700 000:353.339 - 0.005ms returns 0x20000000
T2700 000:353.379 JLINK_ClrBPEx(BPHandle = 0x00000004)
T2700 000:353.383 - 0.005ms returns 0x00
T2700 000:353.387 JLINK_ReadReg(R0)
T2700 000:353.389 - 0.004ms returns 0x00000000
T2700 000:353.535 JLINK_WriteMem(0x200001C0, 0x240 Bytes, ...)
T2700 000:353.539   Data:  08 28 00 20 CD 00 00 08 B5 26 00 08 3D 26 00 08 ...
T2700 000:353.548   CPU_WriteMem(576 bytes @ 0x200001C0)
T2700 000:358.981 - 5.459ms returns 0x240
T2700 000:359.003 JLINK_WriteMem(0x20000400, 0x1C0 Bytes, ...)
T2700 000:359.007   Data:  01 46 05 B0 F0 BD 00 20 01 21 09 05 07 46 86 46 ...
T2700 000:359.015   CPU_WriteMem(448 bytes @ 0x20000400)
T2700 000:363.308 - 4.312ms returns 0x1C0
T2700 000:363.331 JLINK_HasError()
T2700 000:363.350 JLINK_WriteReg(R0, 0x08000000)
T2700 000:363.370 - 0.026ms returns 0
T2700 000:363.385 JLINK_WriteReg(R1, 0x00000400)
T2700 000:363.388 - 0.004ms returns 0
T2700 000:363.391 JLINK_WriteReg(R2, 0x200001C0)
T2700 000:363.394 - 0.004ms returns 0
T2700 000:363.397 JLINK_WriteReg(R3, 0x00000000)
T2700 000:363.400 - 0.004ms returns 0
T2700 000:363.404 JLINK_WriteReg(R4, 0x00000000)
T2700 000:363.406 - 0.004ms returns 0
T2700 000:363.410 JLINK_WriteReg(R5, 0x00000000)
T2700 000:363.413 - 0.004ms returns 0
T2700 000:363.416 JLINK_WriteReg(R6, 0x00000000)
T2700 000:363.419 - 0.004ms returns 0
T2700 000:363.422 JLINK_WriteReg(R7, 0x00000000)
T2700 000:363.425 - 0.004ms returns 0
T2700 000:363.428 JLINK_WriteReg(R8, 0x00000000)
T2700 000:363.431 - 0.004ms returns 0
T2700 000:363.434 JLINK_WriteReg(R9, 0x200001B8)
T2700 000:363.437 - 0.004ms returns 0
T2700 000:363.440 JLINK_WriteReg(R10, 0x00000000)
T2700 000:363.443 - 0.004ms returns 0
T2700 000:363.447 JLINK_WriteReg(R11, 0x00000000)
T2700 000:363.449 - 0.004ms returns 0
T2700 000:363.453 JLINK_WriteReg(R12, 0x00000000)
T2700 000:363.456 - 0.004ms returns 0
T2700 000:363.459 JLINK_WriteReg(R13 (SP), 0x20008000)
T2700 000:363.462 - 0.004ms returns 0
T2700 000:363.466 JLINK_WriteReg(R14, 0x20000001)
T2700 000:363.468 - 0.004ms returns 0
T2700 000:363.472 JLINK_WriteReg(R15 (PC), 0x20000126)
T2700 000:363.475 - 0.004ms returns 0
T2700 000:363.478 JLINK_WriteReg(XPSR, 0x01000000)
T2700 000:363.481 - 0.004ms returns 0
T2700 000:363.484 JLINK_WriteReg(MSP, 0x20008000)
T2700 000:363.487 - 0.004ms returns 0
T2700 000:363.490 JLINK_WriteReg(PSP, 0x20008000)
T2700 000:363.493 - 0.004ms returns 0
T2700 000:363.496 JLINK_WriteReg(CFBP, 0x00000000)
T2700 000:363.499 - 0.004ms returns 0
T2700 000:363.503 JLINK_SetBPEx(Addr = 0x20000000, Type = 0xFFFFFFF2)
T2700 000:363.535 - 0.033ms returns 0x00000005
T2700 000:363.539 JLINK_Go()
T2700 000:363.545   CPU_ReadMem(4 bytes @ 0xE0001000)
T2700 000:367.612 - 4.093ms
T2700 000:367.648 JLINK_IsHalted()
T2700 000:368.054 - 0.413ms returns FALSE
T2700 000:368.076 JLINK_HasError()
T2700 000:370.803 JLINK_IsHalted()
T2700 000:371.222 - 0.431ms returns FALSE
T2700 000:371.239 JLINK_HasError()
T2700 000:372.825 JLINK_IsHalted()
T2700 000:373.311 - 0.496ms returns FALSE
T2700 000:373.334 JLINK_HasError()
T2700 000:374.816 JLINK_IsHalted()
T2700 000:375.311 - 0.504ms returns FALSE
T2700 000:375.334 JLINK_HasError()
T2700 000:376.808 JLINK_IsHalted()
T2700 000:377.224 - 0.428ms returns FALSE
T2700 000:377.249 JLINK_HasError()
T2700 000:378.811 JLINK_IsHalted()
T2700 000:382.759   CPU_ReadMem(2 bytes @ 0x20000000)
T2700 000:383.189 - 4.386ms returns TRUE
T2700 000:383.210 JLINK_ReadReg(R15 (PC))
T2700 000:383.214 - 0.005ms returns 0x20000000
T2700 000:383.259 JLINK_ClrBPEx(BPHandle = 0x00000005)
T2700 000:383.262 - 0.005ms returns 0x00
T2700 000:383.266 JLINK_ReadReg(R0)
T2700 000:383.269 - 0.004ms returns 0x00000000
T2700 000:383.490 JLINK_WriteMem(0x200001C0, 0x240 Bytes, ...)
T2700 000:383.495   Data:  00 2B 08 DA 00 24 40 1C 61 41 92 18 5B 41 1A 43 ...
T2700 000:383.503   CPU_WriteMem(576 bytes @ 0x200001C0)
T2700 000:388.921 - 5.442ms returns 0x240
T2700 000:388.943 JLINK_WriteMem(0x20000400, 0x1C0 Bytes, ...)
T2700 000:388.946   Data:  49 08 0B 91 09 99 08 98 A6 46 08 43 1C D0 0B 99 ...
T2700 000:388.953   CPU_WriteMem(448 bytes @ 0x20000400)
T2700 000:393.322 - 4.399ms returns 0x1C0
T2700 000:393.361 JLINK_HasError()
T2700 000:393.382 JLINK_WriteReg(R0, 0x08000400)
T2700 000:393.390 - 0.009ms returns 0
T2700 000:393.393 JLINK_WriteReg(R1, 0x00000400)
T2700 000:393.396 - 0.004ms returns 0
T2700 000:393.400 JLINK_WriteReg(R2, 0x200001C0)
T2700 000:393.403 - 0.004ms returns 0
T2700 000:393.406 JLINK_WriteReg(R3, 0x00000000)
T2700 000:393.409 - 0.004ms returns 0
T2700 000:393.412 JLINK_WriteReg(R4, 0x00000000)
T2700 000:393.415 - 0.004ms returns 0
T2700 000:393.418 JLINK_WriteReg(R5, 0x00000000)
T2700 000:393.421 - 0.004ms returns 0
T2700 000:393.424 JLINK_WriteReg(R6, 0x00000000)
T2700 000:393.427 - 0.004ms returns 0
T2700 000:393.431 JLINK_WriteReg(R7, 0x00000000)
T2700 000:393.433 - 0.004ms returns 0
T2700 000:393.437 JLINK_WriteReg(R8, 0x00000000)
T2700 000:393.440 - 0.004ms returns 0
T2700 000:393.443 JLINK_WriteReg(R9, 0x200001B8)
T2700 000:393.446 - 0.004ms returns 0
T2700 000:393.449 JLINK_WriteReg(R10, 0x00000000)
T2700 000:393.452 - 0.004ms returns 0
T2700 000:393.455 JLINK_WriteReg(R11, 0x00000000)
T2700 000:393.458 - 0.004ms returns 0
T2700 000:393.461 JLINK_WriteReg(R12, 0x00000000)
T2700 000:393.464 - 0.004ms returns 0
T2700 000:393.467 JLINK_WriteReg(R13 (SP), 0x20008000)
T2700 000:393.471 - 0.004ms returns 0
T2700 000:393.474 JLINK_WriteReg(R14, 0x20000001)
T2700 000:393.477 - 0.004ms returns 0
T2700 000:393.480 JLINK_WriteReg(R15 (PC), 0x20000126)
T2700 000:393.483 - 0.004ms returns 0
T2700 000:393.486 JLINK_WriteReg(XPSR, 0x01000000)
T2700 000:393.489 - 0.004ms returns 0
T2700 000:393.493 JLINK_WriteReg(MSP, 0x20008000)
T2700 000:393.496 - 0.004ms returns 0
T2700 000:393.499 JLINK_WriteReg(PSP, 0x20008000)
T2700 000:393.502 - 0.004ms returns 0
T2700 000:393.505 JLINK_WriteReg(CFBP, 0x00000000)
T2700 000:393.508 - 0.004ms returns 0
T2700 000:393.511 JLINK_SetBPEx(Addr = 0x20000000, Type = 0xFFFFFFF2)
T2700 000:393.515 - 0.005ms returns 0x00000006
T2700 000:393.518 JLINK_Go()
T2700 000:393.525   CPU_ReadMem(4 bytes @ 0xE0001000)
T2700 000:397.610 - 4.100ms
T2700 000:397.633 JLINK_IsHalted()
T2700 000:398.033 - 0.401ms returns FALSE
T2700 000:398.038 JLINK_HasError()
T2700 000:399.721 JLINK_IsHalted()
T2700 000:400.155 - 0.443ms returns FALSE
T2700 000:400.179 JLINK_HasError()
T2700 000:401.715 JLINK_IsHalted()
T2700 000:402.130 - 0.422ms returns FALSE
T2700 000:402.150 JLINK_HasError()
T2700 000:403.712 JLINK_IsHalted()
T2700 000:404.143 - 0.438ms returns FALSE
T2700 000:404.163 JLINK_HasError()
T2700 000:405.697 JLINK_IsHalted()
T2700 000:406.078 - 0.389ms returns FALSE
T2700 000:406.101 JLINK_HasError()
T2700 000:407.698 JLINK_IsHalted()
T2700 000:408.115 - 0.425ms returns FALSE
T2700 000:408.136 JLINK_HasError()
T2700 000:409.720 JLINK_IsHalted()
T2700 000:413.618   CPU_ReadMem(2 bytes @ 0x20000000)
T2700 000:414.048 - 4.336ms returns TRUE
T2700 000:414.072 JLINK_ReadReg(R15 (PC))
T2700 000:414.075 - 0.005ms returns 0x20000000
T2700 000:414.079 JLINK_ClrBPEx(BPHandle = 0x00000006)
T2700 000:414.082 - 0.004ms returns 0x00
T2700 000:414.086 JLINK_ReadReg(R0)
T2700 000:414.089 - 0.004ms returns 0x00000000
T2700 000:414.317 JLINK_WriteMem(0x200001C0, 0x240 Bytes, ...)
T2700 000:414.322   Data:  05 78 0D 70 40 1C 49 1C 5B 1E F9 D1 01 E0 0B 70 ...
T2700 000:414.330   CPU_WriteMem(576 bytes @ 0x200001C0)
T2700 000:419.744 - 5.429ms returns 0x240
T2700 000:419.750 JLINK_WriteMem(0x20000400, 0x1C0 Bytes, ...)
T2700 000:419.753   Data:  82 17 00 20 FF FF 00 00 28 22 00 20 74 31 31 2E ...
T2700 000:419.760   CPU_WriteMem(448 bytes @ 0x20000400)
T2700 000:424.066 - 4.325ms returns 0x1C0
T2700 000:424.091 JLINK_HasError()
T2700 000:424.110 JLINK_WriteReg(R0, 0x08000800)
T2700 000:424.131 - 0.024ms returns 0
T2700 000:424.137 JLINK_WriteReg(R1, 0x00000400)
T2700 000:424.140 - 0.004ms returns 0
T2700 000:424.143 JLINK_WriteReg(R2, 0x200001C0)
T2700 000:424.146 - 0.004ms returns 0
T2700 000:424.149 JLINK_WriteReg(R3, 0x00000000)
T2700 000:424.152 - 0.004ms returns 0
T2700 000:424.156 JLINK_WriteReg(R4, 0x00000000)
T2700 000:424.158 - 0.004ms returns 0
T2700 000:424.162 JLINK_WriteReg(R5, 0x00000000)
T2700 000:424.165 - 0.004ms returns 0
T2700 000:424.168 JLINK_WriteReg(R6, 0x00000000)
T2700 000:424.171 - 0.004ms returns 0
T2700 000:424.174 JLINK_WriteReg(R7, 0x00000000)
T2700 000:424.177 - 0.004ms returns 0
T2700 000:424.180 JLINK_WriteReg(R8, 0x00000000)
T2700 000:424.183 - 0.004ms returns 0
T2700 000:424.187 JLINK_WriteReg(R9, 0x200001B8)
T2700 000:424.189 - 0.004ms returns 0
T2700 000:424.193 JLINK_WriteReg(R10, 0x00000000)
T2700 000:424.196 - 0.004ms returns 0
T2700 000:424.199 JLINK_WriteReg(R11, 0x00000000)
T2700 000:424.202 - 0.004ms returns 0
T2700 000:424.205 JLINK_WriteReg(R12, 0x00000000)
T2700 000:424.208 - 0.004ms returns 0
T2700 000:424.212 JLINK_WriteReg(R13 (SP), 0x20008000)
T2700 000:424.215 - 0.004ms returns 0
T2700 000:424.218 JLINK_WriteReg(R14, 0x20000001)
T2700 000:424.221 - 0.004ms returns 0
T2700 000:424.224 JLINK_WriteReg(R15 (PC), 0x20000126)
T2700 000:424.227 - 0.004ms returns 0
T2700 000:424.230 JLINK_WriteReg(XPSR, 0x01000000)
T2700 000:424.233 - 0.004ms returns 0
T2700 000:424.237 JLINK_WriteReg(MSP, 0x20008000)
T2700 000:424.240 - 0.004ms returns 0
T2700 000:424.243 JLINK_WriteReg(PSP, 0x20008000)
T2700 000:424.246 - 0.004ms returns 0
T2700 000:424.249 JLINK_WriteReg(CFBP, 0x00000000)
T2700 000:424.252 - 0.004ms returns 0
T2700 000:424.255 JLINK_SetBPEx(Addr = 0x20000000, Type = 0xFFFFFFF2)
T2700 000:424.259 - 0.004ms returns 0x00000007
T2700 000:424.262 JLINK_Go()
T2700 000:424.269   CPU_ReadMem(4 bytes @ 0xE0001000)
T2700 000:428.361 - 4.118ms
T2700 000:428.398 JLINK_IsHalted()
T2700 000:428.797 - 0.407ms returns FALSE
T2700 000:428.819 JLINK_HasError()
T2700 000:430.620 JLINK_IsHalted()
T2700 000:431.084 - 0.465ms returns FALSE
T2700 000:431.088 JLINK_HasError()
T2700 000:432.614 JLINK_IsHalted()
T2700 000:433.066 - 0.460ms returns FALSE
T2700 000:433.087 JLINK_HasError()
T2700 000:434.610 JLINK_IsHalted()
T2700 000:435.007 - 0.399ms returns FALSE
T2700 000:435.013 JLINK_HasError()
T2700 000:436.605 JLINK_IsHalted()
T2700 000:437.059 - 0.462ms returns FALSE
T2700 000:437.080 JLINK_HasError()
T2700 000:438.603 JLINK_IsHalted()
T2700 000:439.035 - 0.442ms returns FALSE
T2700 000:439.058 JLINK_HasError()
T2700 000:440.570 JLINK_IsHalted()
T2700 000:444.434   CPU_ReadMem(2 bytes @ 0x20000000)
T2700 000:444.911 - 4.351ms returns TRUE
T2700 000:444.924 JLINK_ReadReg(R15 (PC))
T2700 000:444.928 - 0.005ms returns 0x20000000
T2700 000:444.931 JLINK_ClrBPEx(BPHandle = 0x00000007)
T2700 000:444.935 - 0.004ms returns 0x00
T2700 000:444.938 JLINK_ReadReg(R0)
T2700 000:444.941 - 0.004ms returns 0x00000000
T2700 000:445.153 JLINK_WriteMem(0x200001C0, 0x240 Bytes, ...)
T2700 000:445.158   Data:  54 00 03 26 A6 40 B5 43 CE 68 A6 40 2E 43 86 60 ...
T2700 000:445.166   CPU_WriteMem(576 bytes @ 0x200001C0)
T2700 000:450.639 - 5.495ms returns 0x240
T2700 000:450.655 JLINK_WriteMem(0x20000400, 0x1C0 Bytes, ...)
T2700 000:450.658   Data:  00 07 00 0F 08 38 83 08 04 48 9B 00 18 18 C3 69 ...
T2700 000:450.665   CPU_WriteMem(448 bytes @ 0x20000400)
T2700 000:454.996 - 4.362ms returns 0x1C0
T2700 000:455.027 JLINK_HasError()
T2700 000:455.031 JLINK_WriteReg(R0, 0x08000C00)
T2700 000:455.036 - 0.005ms returns 0
T2700 000:455.039 JLINK_WriteReg(R1, 0x00000400)
T2700 000:455.042 - 0.004ms returns 0
T2700 000:455.045 JLINK_WriteReg(R2, 0x200001C0)
T2700 000:455.048 - 0.004ms returns 0
T2700 000:455.052 JLINK_WriteReg(R3, 0x00000000)
T2700 000:455.055 - 0.004ms returns 0
T2700 000:455.058 JLINK_WriteReg(R4, 0x00000000)
T2700 000:455.061 - 0.004ms returns 0
T2700 000:455.064 JLINK_WriteReg(R5, 0x00000000)
T2700 000:455.067 - 0.004ms returns 0
T2700 000:455.070 JLINK_WriteReg(R6, 0x00000000)
T2700 000:455.073 - 0.004ms returns 0
T2700 000:455.077 JLINK_WriteReg(R7, 0x00000000)
T2700 000:455.079 - 0.004ms returns 0
T2700 000:455.083 JLINK_WriteReg(R8, 0x00000000)
T2700 000:455.086 - 0.004ms returns 0
T2700 000:455.089 JLINK_WriteReg(R9, 0x200001B8)
T2700 000:455.092 - 0.004ms returns 0
T2700 000:455.095 JLINK_WriteReg(R10, 0x00000000)
T2700 000:455.098 - 0.004ms returns 0
T2700 000:455.101 JLINK_WriteReg(R11, 0x00000000)
T2700 000:455.104 - 0.004ms returns 0
T2700 000:455.107 JLINK_WriteReg(R12, 0x00000000)
T2700 000:455.110 - 0.004ms returns 0
T2700 000:455.114 JLINK_WriteReg(R13 (SP), 0x20008000)
T2700 000:455.117 - 0.004ms returns 0
T2700 000:455.120 JLINK_WriteReg(R14, 0x20000001)
T2700 000:455.123 - 0.004ms returns 0
T2700 000:455.126 JLINK_WriteReg(R15 (PC), 0x20000126)
T2700 000:455.129 - 0.004ms returns 0
T2700 000:455.133 JLINK_WriteReg(XPSR, 0x01000000)
T2700 000:455.136 - 0.004ms returns 0
T2700 000:455.139 JLINK_WriteReg(MSP, 0x20008000)
T2700 000:455.142 - 0.004ms returns 0
T2700 000:455.145 JLINK_WriteReg(PSP, 0x20008000)
T2700 000:455.148 - 0.004ms returns 0
T2700 000:455.151 JLINK_WriteReg(CFBP, 0x00000000)
T2700 000:455.154 - 0.004ms returns 0
T2700 000:455.158 JLINK_SetBPEx(Addr = 0x20000000, Type = 0xFFFFFFF2)
T2700 000:455.161 - 0.004ms returns 0x00000008
T2700 000:455.165 JLINK_Go()
T2700 000:455.172   CPU_ReadMem(4 bytes @ 0xE0001000)
T2700 000:459.310 - 4.153ms
T2700 000:459.332 JLINK_IsHalted()
T2700 000:459.747 - 0.423ms returns FALSE
T2700 000:459.768 JLINK_HasError()
T2700 000:461.523 JLINK_IsHalted()
T2700 000:461.969 - 0.455ms returns FALSE
T2700 000:461.994 JLINK_HasError()
T2700 000:463.508 JLINK_IsHalted()
T2700 000:463.950 - 0.449ms returns FALSE
T2700 000:463.971 JLINK_HasError()
T2700 000:465.502 JLINK_IsHalted()
T2700 000:465.912 - 0.418ms returns FALSE
T2700 000:465.933 JLINK_HasError()
T2700 000:467.495 JLINK_IsHalted()
T2700 000:467.929 - 0.449ms returns FALSE
T2700 000:467.956 JLINK_HasError()
T2700 000:469.501 JLINK_IsHalted()
T2700 000:469.927 - 0.434ms returns FALSE
T2700 000:469.948 JLINK_HasError()
T2700 000:471.486 JLINK_IsHalted()
T2700 000:475.298   CPU_ReadMem(2 bytes @ 0x20000000)
T2700 000:475.639 - 4.161ms returns TRUE
T2700 000:475.660 JLINK_ReadReg(R15 (PC))
T2700 000:475.672 - 0.013ms returns 0x20000000
T2700 000:475.676 JLINK_ClrBPEx(BPHandle = 0x00000008)
T2700 000:475.679 - 0.004ms returns 0x00
T2700 000:475.683 JLINK_ReadReg(R0)
T2700 000:475.686 - 0.004ms returns 0x00000000
T2700 000:475.922 JLINK_WriteMem(0x200001C0, 0x240 Bytes, ...)
T2700 000:475.927   Data:  88 42 05 D1 08 48 C1 68 01 22 12 04 11 43 C1 60 ...
T2700 000:475.939   CPU_WriteMem(576 bytes @ 0x200001C0)
T2700 000:481.427 - 5.534ms returns 0x240
T2700 000:481.478 JLINK_WriteMem(0x20000400, 0x1C0 Bytes, ...)
T2700 000:481.494   Data:  18 46 FE F7 51 FF E1 68 49 04 49 0E 48 43 E1 68 ...
T2700 000:481.504   CPU_WriteMem(448 bytes @ 0x20000400)
T2700 000:485.763 - 4.296ms returns 0x1C0
T2700 000:485.792 JLINK_HasError()
T2700 000:485.803 JLINK_WriteReg(R0, 0x08001000)
T2700 000:485.808 - 0.006ms returns 0
T2700 000:485.812 JLINK_WriteReg(R1, 0x00000400)
T2700 000:485.815 - 0.004ms returns 0
T2700 000:485.819 JLINK_WriteReg(R2, 0x200001C0)
T2700 000:485.822 - 0.004ms returns 0
T2700 000:485.825 JLINK_WriteReg(R3, 0x00000000)
T2700 000:485.828 - 0.004ms returns 0
T2700 000:485.831 JLINK_WriteReg(R4, 0x00000000)
T2700 000:485.834 - 0.004ms returns 0
T2700 000:485.837 JLINK_WriteReg(R5, 0x00000000)
T2700 000:485.840 - 0.004ms returns 0
T2700 000:485.843 JLINK_WriteReg(R6, 0x00000000)
T2700 000:485.846 - 0.004ms returns 0
T2700 000:485.850 JLINK_WriteReg(R7, 0x00000000)
T2700 000:485.852 - 0.004ms returns 0
T2700 000:485.856 JLINK_WriteReg(R8, 0x00000000)
T2700 000:485.859 - 0.004ms returns 0
T2700 000:485.862 JLINK_WriteReg(R9, 0x200001B8)
T2700 000:485.865 - 0.004ms returns 0
T2700 000:485.868 JLINK_WriteReg(R10, 0x00000000)
T2700 000:485.871 - 0.004ms returns 0
T2700 000:485.874 JLINK_WriteReg(R11, 0x00000000)
T2700 000:485.877 - 0.004ms returns 0
T2700 000:485.881 JLINK_WriteReg(R12, 0x00000000)
T2700 000:485.883 - 0.004ms returns 0
T2700 000:485.887 JLINK_WriteReg(R13 (SP), 0x20008000)
T2700 000:485.890 - 0.004ms returns 0
T2700 000:485.893 JLINK_WriteReg(R14, 0x20000001)
T2700 000:485.896 - 0.004ms returns 0
T2700 000:485.899 JLINK_WriteReg(R15 (PC), 0x20000126)
T2700 000:485.902 - 0.004ms returns 0
T2700 000:485.906 JLINK_WriteReg(XPSR, 0x01000000)
T2700 000:485.909 - 0.004ms returns 0
T2700 000:485.912 JLINK_WriteReg(MSP, 0x20008000)
T2700 000:485.915 - 0.004ms returns 0
T2700 000:485.918 JLINK_WriteReg(PSP, 0x20008000)
T2700 000:485.921 - 0.004ms returns 0
T2700 000:485.925 JLINK_WriteReg(CFBP, 0x00000000)
T2700 000:485.928 - 0.004ms returns 0
T2700 000:485.931 JLINK_SetBPEx(Addr = 0x20000000, Type = 0xFFFFFFF2)
T2700 000:485.935 - 0.005ms returns 0x00000009
T2700 000:485.938 JLINK_Go()
T2700 000:485.945   CPU_ReadMem(4 bytes @ 0xE0001000)
T2700 000:490.084 - 4.154ms
T2700 000:490.114 JLINK_IsHalted()
T2700 000:490.503 - 0.391ms returns FALSE
T2700 000:490.509 JLINK_HasError()
T2700 000:492.422 JLINK_IsHalted()
T2700 000:492.904 - 0.483ms returns FALSE
T2700 000:492.908 JLINK_HasError()
T2700 000:494.406 JLINK_IsHalted()
T2700 000:494.869 - 0.471ms returns FALSE
T2700 000:494.890 JLINK_HasError()
T2700 000:496.389 JLINK_IsHalted()
T2700 000:496.780 - 0.399ms returns FALSE
T2700 000:496.804 JLINK_HasError()
T2700 000:498.393 JLINK_IsHalted()
T2700 000:498.811 - 0.426ms returns FALSE
T2700 000:498.832 JLINK_HasError()
T2700 000:500.388 JLINK_IsHalted()
T2700 000:500.807 - 0.421ms returns FALSE
T2700 000:500.811 JLINK_HasError()
T2700 000:502.385 JLINK_IsHalted()
T2700 000:506.212   CPU_ReadMem(2 bytes @ 0x20000000)
T2700 000:506.616 - 4.233ms returns TRUE
T2700 000:506.621 JLINK_ReadReg(R15 (PC))
T2700 000:506.624 - 0.005ms returns 0x20000000
T2700 000:506.628 JLINK_ClrBPEx(BPHandle = 0x00000009)
T2700 000:506.631 - 0.004ms returns 0x00
T2700 000:506.635 JLINK_ReadReg(R0)
T2700 000:506.638 - 0.004ms returns 0x00000000
T2700 000:506.858 JLINK_WriteMem(0x200001C0, 0x240 Bytes, ...)
T2700 000:506.863   Data:  38 68 40 05 F5 D4 20 78 9B 4D 00 07 32 D5 B8 68 ...
T2700 000:506.871   CPU_WriteMem(576 bytes @ 0x200001C0)
T2700 000:512.312 - 5.464ms returns 0x240
T2700 000:512.347 JLINK_WriteMem(0x20000400, 0x1C0 Bytes, ...)
T2700 000:512.363   Data:  A2 6A 09 02 01 40 12 02 91 42 0A D1 1F 21 49 04 ...
T2700 000:512.389   CPU_WriteMem(448 bytes @ 0x20000400)
T2700 000:516.603 - 4.258ms returns 0x1C0
T2700 000:516.609 JLINK_HasError()
T2700 000:516.628 JLINK_WriteReg(R0, 0x08001400)
T2700 000:516.634 - 0.009ms returns 0
T2700 000:516.640 JLINK_WriteReg(R1, 0x00000400)
T2700 000:516.643 - 0.004ms returns 0
T2700 000:516.646 JLINK_WriteReg(R2, 0x200001C0)
T2700 000:516.649 - 0.004ms returns 0
T2700 000:516.652 JLINK_WriteReg(R3, 0x00000000)
T2700 000:516.655 - 0.004ms returns 0
T2700 000:516.659 JLINK_WriteReg(R4, 0x00000000)
T2700 000:516.661 - 0.004ms returns 0
T2700 000:516.665 JLINK_WriteReg(R5, 0x00000000)
T2700 000:516.667 - 0.004ms returns 0
T2700 000:516.671 JLINK_WriteReg(R6, 0x00000000)
T2700 000:516.674 - 0.004ms returns 0
T2700 000:516.677 JLINK_WriteReg(R7, 0x00000000)
T2700 000:516.680 - 0.004ms returns 0
T2700 000:516.683 JLINK_WriteReg(R8, 0x00000000)
T2700 000:516.686 - 0.004ms returns 0
T2700 000:516.689 JLINK_WriteReg(R9, 0x200001B8)
T2700 000:516.692 - 0.004ms returns 0
T2700 000:516.695 JLINK_WriteReg(R10, 0x00000000)
T2700 000:516.698 - 0.004ms returns 0
T2700 000:516.701 JLINK_WriteReg(R11, 0x00000000)
T2700 000:516.704 - 0.004ms returns 0
T2700 000:516.708 JLINK_WriteReg(R12, 0x00000000)
T2700 000:516.710 - 0.004ms returns 0
T2700 000:516.714 JLINK_WriteReg(R13 (SP), 0x20008000)
T2700 000:516.717 - 0.004ms returns 0
T2700 000:516.720 JLINK_WriteReg(R14, 0x20000001)
T2700 000:516.723 - 0.004ms returns 0
T2700 000:516.726 JLINK_WriteReg(R15 (PC), 0x20000126)
T2700 000:516.729 - 0.004ms returns 0
T2700 000:516.733 JLINK_WriteReg(XPSR, 0x01000000)
T2700 000:516.736 - 0.004ms returns 0
T2700 000:516.739 JLINK_WriteReg(MSP, 0x20008000)
T2700 000:516.742 - 0.004ms returns 0
T2700 000:516.745 JLINK_WriteReg(PSP, 0x20008000)
T2700 000:516.748 - 0.004ms returns 0
T2700 000:516.751 JLINK_WriteReg(CFBP, 0x00000000)
T2700 000:516.754 - 0.004ms returns 0
T2700 000:516.758 JLINK_SetBPEx(Addr = 0x20000000, Type = 0xFFFFFFF2)
T2700 000:516.761 - 0.005ms returns 0x0000000A
T2700 000:516.765 JLINK_Go()
T2700 000:516.771   CPU_ReadMem(4 bytes @ 0xE0001000)
T2700 000:520.976 - 4.220ms
T2700 000:520.998 JLINK_IsHalted()
T2700 000:521.413 - 0.416ms returns FALSE
T2700 000:521.417 JLINK_HasError()
T2700 000:523.310 JLINK_IsHalted()
T2700 000:523.702 - 0.394ms returns FALSE
T2700 000:523.707 JLINK_HasError()
T2700 000:525.286 JLINK_IsHalted()
T2700 000:525.648 - 0.371ms returns FALSE
T2700 000:525.670 JLINK_HasError()
T2700 000:527.295 JLINK_IsHalted()
T2700 000:527.712 - 0.425ms returns FALSE
T2700 000:527.733 JLINK_HasError()
T2700 000:529.323 JLINK_IsHalted()
T2700 000:529.738 - 0.424ms returns FALSE
T2700 000:529.759 JLINK_HasError()
T2700 000:531.283 JLINK_IsHalted()
T2700 000:531.685 - 0.409ms returns FALSE
T2700 000:531.705 JLINK_HasError()
T2700 000:533.278 JLINK_IsHalted()
T2700 000:537.126   CPU_ReadMem(2 bytes @ 0x20000000)
T2700 000:537.584 - 4.307ms returns TRUE
T2700 000:537.588 JLINK_ReadReg(R15 (PC))
T2700 000:537.592 - 0.004ms returns 0x20000000
T2700 000:537.595 JLINK_ClrBPEx(BPHandle = 0x0000000A)
T2700 000:537.599 - 0.004ms returns 0x00
T2700 000:537.602 JLINK_ReadReg(R0)
T2700 000:537.617 - 0.017ms returns 0x00000000
T2700 000:537.836 JLINK_WriteMem(0x200001C0, 0x240 Bytes, ...)
T2700 000:537.841   Data:  BF FF 8F FB 00 B5 89 B0 00 21 00 91 01 91 02 91 ...
T2700 000:537.849   CPU_WriteMem(576 bytes @ 0x200001C0)
T2700 000:543.311 - 5.485ms returns 0x240
T2700 000:543.342 JLINK_WriteMem(0x20000400, 0x1C0 Bytes, ...)
T2700 000:543.347   Data:  B4 42 04 D1 0F 27 3F 05 BB 43 4F 68 3B 43 70 27 ...
T2700 000:543.353   CPU_WriteMem(448 bytes @ 0x20000400)
T2700 000:547.612 - 4.282ms returns 0x1C0
T2700 000:547.645 JLINK_HasError()
T2700 000:547.700 JLINK_WriteReg(R0, 0x08001800)
T2700 000:547.704 - 0.005ms returns 0
T2700 000:547.708 JLINK_WriteReg(R1, 0x00000400)
T2700 000:547.711 - 0.004ms returns 0
T2700 000:547.714 JLINK_WriteReg(R2, 0x200001C0)
T2700 000:547.717 - 0.004ms returns 0
T2700 000:547.720 JLINK_WriteReg(R3, 0x00000000)
T2700 000:547.723 - 0.004ms returns 0
T2700 000:547.727 JLINK_WriteReg(R4, 0x00000000)
T2700 000:547.729 - 0.004ms returns 0
T2700 000:547.733 JLINK_WriteReg(R5, 0x00000000)
T2700 000:547.740 - 0.008ms returns 0
T2700 000:547.743 JLINK_WriteReg(R6, 0x00000000)
T2700 000:547.746 - 0.004ms returns 0
T2700 000:547.749 JLINK_WriteReg(R7, 0x00000000)
T2700 000:547.752 - 0.004ms returns 0
T2700 000:547.756 JLINK_WriteReg(R8, 0x00000000)
T2700 000:547.758 - 0.004ms returns 0
T2700 000:547.762 JLINK_WriteReg(R9, 0x200001B8)
T2700 000:547.765 - 0.004ms returns 0
T2700 000:547.768 JLINK_WriteReg(R10, 0x00000000)
T2700 000:547.771 - 0.004ms returns 0
T2700 000:547.774 JLINK_WriteReg(R11, 0x00000000)
T2700 000:547.777 - 0.004ms returns 0
T2700 000:547.780 JLINK_WriteReg(R12, 0x00000000)
T2700 000:547.783 - 0.004ms returns 0
T2700 000:547.786 JLINK_WriteReg(R13 (SP), 0x20008000)
T2700 000:547.789 - 0.004ms returns 0
T2700 000:547.793 JLINK_WriteReg(R14, 0x20000001)
T2700 000:547.796 - 0.004ms returns 0
T2700 000:547.799 JLINK_WriteReg(R15 (PC), 0x20000126)
T2700 000:547.802 - 0.004ms returns 0
T2700 000:547.805 JLINK_WriteReg(XPSR, 0x01000000)
T2700 000:547.808 - 0.004ms returns 0
T2700 000:547.811 JLINK_WriteReg(MSP, 0x20008000)
T2700 000:547.814 - 0.004ms returns 0
T2700 000:547.817 JLINK_WriteReg(PSP, 0x20008000)
T2700 000:547.820 - 0.004ms returns 0
T2700 000:547.824 JLINK_WriteReg(CFBP, 0x00000000)
T2700 000:547.826 - 0.004ms returns 0
T2700 000:547.830 JLINK_SetBPEx(Addr = 0x20000000, Type = 0xFFFFFFF2)
T2700 000:547.833 - 0.004ms returns 0x0000000B
T2700 000:547.837 JLINK_Go()
T2700 000:547.844   CPU_ReadMem(4 bytes @ 0xE0001000)
T2700 000:551.993 - 4.177ms
T2700 000:552.033 JLINK_IsHalted()
T2700 000:552.453 - 0.440ms returns FALSE
T2700 000:552.477 JLINK_HasError()
T2700 000:554.232 JLINK_IsHalted()
T2700 000:554.655 - 0.432ms returns FALSE
T2700 000:554.678 JLINK_HasError()
T2700 000:556.207 JLINK_IsHalted()
T2700 000:556.624 - 0.425ms returns FALSE
T2700 000:556.644 JLINK_HasError()
T2700 000:558.201 JLINK_IsHalted()
T2700 000:558.580 - 0.381ms returns FALSE
T2700 000:558.585 JLINK_HasError()
T2700 000:561.186 JLINK_IsHalted()
T2700 000:561.619 - 0.443ms returns FALSE
T2700 000:561.642 JLINK_HasError()
T2700 000:563.177 JLINK_IsHalted()
T2700 000:567.016   CPU_ReadMem(2 bytes @ 0x20000000)
T2700 000:567.416 - 4.241ms returns TRUE
T2700 000:567.421 JLINK_ReadReg(R15 (PC))
T2700 000:567.426 - 0.005ms returns 0x20000000
T2700 000:567.430 JLINK_ClrBPEx(BPHandle = 0x0000000B)
T2700 000:567.433 - 0.004ms returns 0x00
T2700 000:567.436 JLINK_ReadReg(R0)
T2700 000:567.439 - 0.004ms returns 0x00000000
T2700 000:567.666 JLINK_WriteMem(0x200001C0, 0x240 Bytes, ...)
T2700 000:567.670   Data:  0A 68 52 08 52 00 0A 60 01 21 20 30 41 77 00 20 ...
T2700 000:567.679   CPU_WriteMem(576 bytes @ 0x200001C0)
T2700 000:573.095 - 5.440ms returns 0x240
T2700 000:573.116 JLINK_WriteMem(0x20000400, 0x1C0 Bytes, ...)
T2700 000:573.119   Data:  8A 60 02 68 13 68 14 68 64 08 64 00 14 60 01 22 ...
T2700 000:573.127   CPU_WriteMem(448 bytes @ 0x20000400)
T2700 000:577.483 - 4.375ms returns 0x1C0
T2700 000:577.511 JLINK_HasError()
T2700 000:577.570 JLINK_WriteReg(R0, 0x08001C00)
T2700 000:577.574 - 0.005ms returns 0
T2700 000:577.578 JLINK_WriteReg(R1, 0x00000400)
T2700 000:577.581 - 0.004ms returns 0
T2700 000:577.584 JLINK_WriteReg(R2, 0x200001C0)
T2700 000:577.587 - 0.004ms returns 0
T2700 000:577.590 JLINK_WriteReg(R3, 0x00000000)
T2700 000:577.593 - 0.004ms returns 0
T2700 000:577.597 JLINK_WriteReg(R4, 0x00000000)
T2700 000:577.599 - 0.004ms returns 0
T2700 000:577.603 JLINK_WriteReg(R5, 0x00000000)
T2700 000:577.606 - 0.004ms returns 0
T2700 000:577.609 JLINK_WriteReg(R6, 0x00000000)
T2700 000:577.612 - 0.004ms returns 0
T2700 000:577.615 JLINK_WriteReg(R7, 0x00000000)
T2700 000:577.618 - 0.004ms returns 0
T2700 000:577.621 JLINK_WriteReg(R8, 0x00000000)
T2700 000:577.624 - 0.004ms returns 0
T2700 000:577.627 JLINK_WriteReg(R9, 0x200001B8)
T2700 000:577.630 - 0.004ms returns 0
T2700 000:577.633 JLINK_WriteReg(R10, 0x00000000)
T2700 000:577.636 - 0.004ms returns 0
T2700 000:577.639 JLINK_WriteReg(R11, 0x00000000)
T2700 000:577.645 - 0.008ms returns 0
T2700 000:577.650 JLINK_WriteReg(R12, 0x00000000)
T2700 000:577.652 - 0.004ms returns 0
T2700 000:577.656 JLINK_WriteReg(R13 (SP), 0x20008000)
T2700 000:577.659 - 0.004ms returns 0
T2700 000:577.662 JLINK_WriteReg(R14, 0x20000001)
T2700 000:577.665 - 0.004ms returns 0
T2700 000:577.669 JLINK_WriteReg(R15 (PC), 0x20000126)
T2700 000:577.671 - 0.004ms returns 0
T2700 000:577.675 JLINK_WriteReg(XPSR, 0x01000000)
T2700 000:577.678 - 0.004ms returns 0
T2700 000:577.681 JLINK_WriteReg(MSP, 0x20008000)
T2700 000:577.684 - 0.004ms returns 0
T2700 000:577.687 JLINK_WriteReg(PSP, 0x20008000)
T2700 000:577.690 - 0.004ms returns 0
T2700 000:577.693 JLINK_WriteReg(CFBP, 0x00000000)
T2700 000:577.696 - 0.004ms returns 0
T2700 000:577.699 JLINK_SetBPEx(Addr = 0x20000000, Type = 0xFFFFFFF2)
T2700 000:577.703 - 0.004ms returns 0x0000000C
T2700 000:577.707 JLINK_Go()
T2700 000:577.713   CPU_ReadMem(4 bytes @ 0xE0001000)
T2700 000:581.837 - 4.150ms
T2700 000:581.874 JLINK_IsHalted()
T2700 000:582.300 - 0.433ms returns FALSE
T2700 000:582.321 JLINK_HasError()
T2700 000:584.109 JLINK_IsHalted()
T2700 000:584.610 - 0.508ms returns FALSE
T2700 000:584.630 JLINK_HasError()
T2700 000:586.095 JLINK_IsHalted()
T2700 000:586.493 - 0.405ms returns FALSE
T2700 000:586.516 JLINK_HasError()
T2700 000:588.096 JLINK_IsHalted()
T2700 000:588.608 - 0.520ms returns FALSE
T2700 000:588.629 JLINK_HasError()
T2700 000:590.091 JLINK_IsHalted()
T2700 000:590.507 - 0.423ms returns FALSE
T2700 000:590.527 JLINK_HasError()
T2700 000:592.092 JLINK_IsHalted()
T2700 000:592.493 - 0.413ms returns FALSE
T2700 000:592.518 JLINK_HasError()
T2700 000:594.082 JLINK_IsHalted()
T2700 000:597.907   CPU_ReadMem(2 bytes @ 0x20000000)
T2700 000:598.306 - 4.225ms returns TRUE
T2700 000:598.310 JLINK_ReadReg(R15 (PC))
T2700 000:598.314 - 0.004ms returns 0x20000000
